T4774 855:767 SEGGER J-Link V6.32i Log File (0001ms, 1022ms total)
T4774 855:767 DLL Compiled: Jul 24 2018 15:19:55 (0001ms, 1022ms total)
T4774 855:767 Logging started @ 2020-10-16 09:13 (0002ms, 1023ms total)
T4774 855:769 JLINK_SetWarnOutHandler(...) (0000ms, 1023ms total)
T4774 855:769 JLINK_OpenEx(...)
Firmware: J-Link V9 compiled Jun  2 2222 22:22:22
Hardware: V9.40
S/N: 59401308
Feature(s): GDB, RDI, FlashBP, FlashDL, JFlash, RDDI
TELNET listener socket opened on port 19021WEBSRV 
Starting webserver (0019ms, 1042ms total)
T4774 855:769 WEBSRV Webserver running on local port 19080 (0022ms, 1045ms total)
T4774 855:769   returns O.K. (0022ms, 1045ms total)
T4774 855:791 JLINK_GetEmuCaps()  returns 0xB9FF7BBF (0001ms, 1046ms total)
T4774 855:792 JLINK_TIF_GetAvailable(...) (0001ms, 1047ms total)
T4774 855:793 JLINK_SetErrorOutHandler(...) (0000ms, 1047ms total)
T4774 855:793 JLINK_ExecCommand("ProjectFile = "D:\WAREHOUSE\LocalRep\STM32F4_ESP8266_AT\MDK-ARM\JLinkSettings.ini"", ...).   returns 0x00 (0005ms, 1052ms total)
T4774 855:798 JLINK_ExecCommand("Device = STM32F407ZGTx", ...). Device "STM32F407ZG" selected.  returns 0x00 (0007ms, 1059ms total)
T4774 855:805 JLINK_ExecCommand("DisableConnectionTimeout", ...).   returns 0x01 (0000ms, 1059ms total)
T4774 855:805 JLINK_GetHardwareVersion()  returns 0x16F30 (0000ms, 1059ms total)
T4774 855:806 JLINK_GetDLLVersion()  returns 63209 (0000ms, 1060ms total)
T4774 855:806 JLINK_GetFirmwareString(...) (0001ms, 1061ms total)
T4774 855:807 JLINK_GetDLLVersion()  returns 63209 (0000ms, 1061ms total)
T4774 855:807 JLINK_GetCompileDateTime() (0001ms, 1062ms total)
T4774 855:808 JLINK_GetFirmwareString(...) (0000ms, 1062ms total)
T4774 855:808 JLINK_GetHardwareVersion()  returns 0x16F30 (0001ms, 1063ms total)
T4774 855:809 JLINK_TIF_Select(JLINKARM_TIF_JTAG)  returns 0x00 (0002ms, 1065ms total)
T4774 855:811 JLINK_SetSpeed(5000) (0000ms, 1065ms total)
T4774 855:811 JLINK_GetIdData(...) >0x2F8 JTAG>TotalIRLen = 9, IRPrint = 0x0011 >0x30 JTAG> >0x50 JTAG>JTAG chain detection found 2 devices: #0 Id: 0x4BA00477, IRLen: 04, CoreSight JTAG-DP #1 Id: 0x06413041, IRLen: 05, STM32 Boundary Scan >0x40 JTAG> >0x40 JTAG> >0x40 JTAG> >0x30 JTAG> >0x40 JTAG> >0x40 JTAG> >0x40 JTAG> >0x40 JTAG> >0x40 JTAG> >0x40 JTAG> >0x40 JTAG> >0x40 JTAG> >0x40 JTAG> >0x40 JTAG> >0x40 JTAG> >0x40 JTAG> >0x40 JTAG> >0x40 JTAG> >0x40 JTAG> >0x40 JTAG> >0x40 JTAG> >0x40 JTAG>
 >0x40 JTAG> >0x40 JTAG> >0x2F8 JTAG>TotalIRLen = 9, IRPrint = 0x0011 >0x30 JTAG> >0x50 JTAG>JTAG chain detection found 2 devices: #0 Id: 0x4BA00477, IRLen: 04, CoreSight JTAG-DP #1 Id: 0x06413041, IRLen: 05, STM32 Boundary ScanScanning AP map to find all available APs >0x80 JTAG> >0x50 JTAG> >0x40 JTAG> >0x40 JTAG> >0x50 JTAG> >0x40 JTAG>AP[1]: Stopped AP scan as end of AP map has been reachedAP[0]: AHB-AP (IDR: 0x24770011)Iterating through AP map to find AHB-AP to use >0x80 JTAG> >0x50 JTAG>
 >0x50 JTAG> >0x80 JTAG> >0x40 JTAG> >0x30 JTAG> >0x40 JTAG> >0x40 JTAG>AP[0]: Core foundAP[0]: AHB-AP ROM base: 0xE00FF000 >0x40 JTAG> >0x40 JTAG> >0x30 JTAG> >0x40 JTAG> >0x40 JTAG>CPUID register: 0x410FC241. Implementer code: 0x41 (ARM)Found Cortex-M4 r0p1, Little endian. -- Max. mem block: 0x00010B90 -- CPU_ReadMem(4 bytes @ 0xE000EDF0) -- CPU_WriteMem(4 bytes @ 0xE000EDF0) -- CPU_ReadMem(4 bytes @ 0xE0002000)FPUnit: 6 code (BP) slots and 2 literal slots -- CPU_ReadMem(4 bytes @ 0xE000EDFC)
 -- CPU_WriteMem(4 bytes @ 0xE000EDFC) -- CPU_ReadMem(4 bytes @ 0xE0001000) -- CPU_WriteMem(4 bytes @ 0xE0001000) -- CPU_ReadMem(4 bytes @ 0xE000ED88) -- CPU_WriteMem(4 bytes @ 0xE000ED88) -- CPU_ReadMem(4 bytes @ 0xE000ED88) -- CPU_WriteMem(4 bytes @ 0xE000ED88)CoreSight components:ROMTbl[0] @ E00FF000 -- CPU_ReadMem(16 bytes @ 0xE00FF000) -- CPU_ReadMem(16 bytes @ 0xE000EFF0) -- CPU_ReadMem(16 bytes @ 0xE000EFE0)ROMTbl[0][0]: E000E000, CID: B105E00D, PID: 000BB00C SCS-M7
 -- CPU_ReadMem(16 bytes @ 0xE0001FF0) -- CPU_ReadMem(16 bytes @ 0xE0001FE0)ROMTbl[0][1]: E0001000, CID: B105E00D, PID: 003BB002 DWT -- CPU_ReadMem(16 bytes @ 0xE0002FF0) -- CPU_ReadMem(16 bytes @ 0xE0002FE0)ROMTbl[0][2]: E0002000, CID: B105E00D, PID: 002BB003 FPB -- CPU_ReadMem(16 bytes @ 0xE0000FF0) -- CPU_ReadMem(16 bytes @ 0xE0000FE0)ROMTbl[0][3]: E0000000, CID: B105E00D, PID: 003BB001 ITM -- CPU_ReadMem(16 bytes @ 0xE00FF010) -- CPU_ReadMem(16 bytes @ 0xE0040FF0)
 -- CPU_ReadMem(16 bytes @ 0xE0040FE0)ROMTbl[0][4]: E0040000, CID: B105900D, PID: 000BB9A1 TPIU -- CPU_ReadMem(16 bytes @ 0xE0041FF0) -- CPU_ReadMem(16 bytes @ 0xE0041FE0)ROMTbl[0][5]: E0041000, CID: B105900D, PID: 000BB925 ETM ScanLen=9 NumDevices=2 aId[0]=0x4BA00477 aIrRead[0]=0 aScanLen[0]=0 aScanRead[0]=0 (0029ms, 1094ms total)
T4774 855:840 JLINK_JTAG_GetDeviceID(DeviceIndex = 0)  returns 0x4BA00477 (0000ms, 1094ms total)
T4774 855:840 JLINK_JTAG_GetDeviceInfo(DeviceIndex = 0)  returns 0x00 (0001ms, 1095ms total)
T4774 855:841 JLINK_JTAG_GetDeviceID(DeviceIndex = 1)  returns 0x6413041 (0000ms, 1095ms total)
T4774 855:841 JLINK_JTAG_GetDeviceInfo(DeviceIndex = 1)  returns 0x00 (0000ms, 1095ms total)
T4774 855:841 JLINK_GetDLLVersion()  returns 63209 (0000ms, 1095ms total)
T4774 855:841 JLINK_CORE_GetFound()  returns 0xE0000FF (0000ms, 1095ms total)
T4774 855:842 JLINK_GetDebugInfo(0x100 = JLINKARM_ROM_TABLE_ADDR_INDEX) -- Value=0xE00FF000  returns 0x00 (0000ms, 1096ms total)
T4774 855:842 JLINK_GetDebugInfo(0x100 = JLINKARM_ROM_TABLE_ADDR_INDEX) -- Value=0xE00FF000  returns 0x00 (0000ms, 1096ms total)
T4774 855:842 JLINK_GetDebugInfo(0x101 = JLINKARM_DEBUG_INFO_ETM_ADDR_INDEX) -- Value=0xE0041000  returns 0x00 (0000ms, 1096ms total)
T4774 855:842 JLINK_ReadMemEx(0xE0041FD0, 0x0020 Bytes, ..., Flags = 0x02000004) -- CPU_ReadMem(32 bytes @ 0xE0041FD0) - Data: 04 00 00 00 00 00 00 00 00 00 00 00 00 00 00 00 ...  returns 0x20 (0001ms, 1097ms total)
T4774 855:843 JLINK_GetDebugInfo(0x102 = JLINKARM_DEBUG_INFO_MTB_ADDR_INDEX) -- Value=0x00000000  returns 0x00 (0001ms, 1098ms total)
T4774 855:844 JLINK_GetDebugInfo(0x103 = JLINKARM_DEBUG_INFO_TPIU_ADDR_INDEX) -- Value=0xE0040000  returns 0x00 (0000ms, 1098ms total)
T4774 855:844 JLINK_GetDebugInfo(0x104 = JLINKARM_DEBUG_INFO_ITM_ADDR_INDEX) -- Value=0xE0000000  returns 0x00 (0000ms, 1098ms total)
T4774 855:844 JLINK_GetDebugInfo(0x105 = JLINKARM_DEBUG_INFO_DWT_ADDR_INDEX) -- Value=0xE0001000  returns 0x00 (0000ms, 1098ms total)
T4774 855:844 JLINK_GetDebugInfo(0x106 = JLINKARM_DEBUG_INFO_FPB_ADDR_INDEX) -- Value=0xE0002000  returns 0x00 (0001ms, 1099ms total)
T4774 855:845 JLINK_GetDebugInfo(0x107 = JLINKARM_DEBUG_INFO_NVIC_ADDR_INDEX) -- Value=0xE000E000  returns 0x00 (0000ms, 1099ms total)
T4774 855:845 JLINK_GetDebugInfo(0x10C = JLINKARM_DEBUG_INFO_DBG_ADDR_INDEX) -- Value=0xE000EDF0  returns 0x00 (0000ms, 1099ms total)
T4774 855:845 JLINK_GetDebugInfo(0x01 = Unknown) -- Value=0x00000001  returns 0x00 (0000ms, 1099ms total)
T4774 855:846 JLINK_ReadMemU32(0xE000ED00, 0x0001 Items, ...) -- CPU_ReadMem(4 bytes @ 0xE000ED00) - Data: 41 C2 0F 41  returns 0x01 (0000ms, 1100ms total)
T4774 855:846 JLINK_GetDebugInfo(0x10F = JLINKARM_DEBUG_INFO_HAS_CORTEX_M_SECURITY_EXT_INDEX) -- Value=0x00000000  returns 0x00 (0000ms, 1100ms total)
T4774 855:847 JLINK_SetResetType(JLINKARM_CM3_RESET_TYPE_NORMAL)  returns JLINKARM_CM3_RESET_TYPE_NORMAL (0000ms, 1100ms total)
T4774 855:847 JLINK_Reset() -- CPU is running -- CPU_WriteMem(4 bytes @ 0xE000EDF0) -- CPU is running -- CPU_WriteMem(4 bytes @ 0xE000EDFC)Reset: Halt core after reset via DEMCR.VC_CORERESET.Reset: Reset device via AIRCR.SYSRESETREQ. -- CPU is running -- CPU_WriteMem(4 bytes @ 0xE000ED0C) -- CPU_ReadMem(4 bytes @ 0xE000EDF0) -- CPU_ReadMem(4 bytes @ 0xE000EDF0) -- CPU is running -- CPU_WriteMem(4 bytes @ 0xE000EDF0) -- CPU is running -- CPU_WriteMem(4 bytes @ 0xE000EDFC)
 -- CPU_ReadMem(4 bytes @ 0xE000EDF0) -- CPU_WriteMem(4 bytes @ 0xE000EDFC) -- CPU_WriteMem(4 bytes @ 0xE0001028) -- CPU_WriteMem(4 bytes @ 0xE0001038) -- CPU_WriteMem(4 bytes @ 0xE0001048) -- CPU_WriteMem(4 bytes @ 0xE0001058) -- CPU_WriteMem(4 bytes @ 0xE0002000) -- CPU_ReadMem(4 bytes @ 0xE000EDFC) -- CPU_ReadMem(4 bytes @ 0xE0001000) (0065ms, 1165ms total)
T4774 855:912 JLINK_ReadReg(R15 (PC))  returns 0x0800019C (0000ms, 1165ms total)
T4774 855:912 JLINK_ReadReg(XPSR)  returns 0x01000000 (0000ms, 1165ms total)
T4774 855:912 JLINK_Halt()  returns 0x00 (0000ms, 1165ms total)
T4774 855:912 JLINK_ReadMemU32(0xE000EDF0, 0x0001 Items, ...) -- CPU_ReadMem(4 bytes @ 0xE000EDF0) - Data: 03 00 03 00  returns 0x01 (0001ms, 1166ms total)
T4774 855:913 JLINK_WriteU32(0xE000EDF0, 0xA05F0003) -- CPU_WriteMem(4 bytes @ 0xE000EDF0)  returns 0x00 (0001ms, 1167ms total)
T4774 855:914 JLINK_WriteU32(0xE000EDFC, 0x01000000) -- CPU_WriteMem(4 bytes @ 0xE000EDFC)  returns 0x00 (0000ms, 1167ms total)
T4774 855:914 JLINK_GetHWStatus(...)  returns 0x00 (0000ms, 1167ms total)
T4774 855:914 JLINK_GetNumBPUnits(Type = 0xFFFFFF00)  returns 0x06 (0001ms, 1168ms total)
T4774 855:915 JLINK_GetNumBPUnits(Type = 0xF0)  returns 0x2000 (0000ms, 1168ms total)
T4774 855:915 JLINK_GetNumWPUnits()  returns 0x04 (0000ms, 1168ms total)
T4774 855:915 JLINK_GetSpeed()  returns 0x1388 (0000ms, 1168ms total)
T4774 855:915 JLINK_ReadMemU32(0xE000E004, 0x0001 Items, ...) -- CPU_ReadMem(4 bytes @ 0xE000E004) - Data: 02 00 00 00  returns 0x01 (0001ms, 1169ms total)
T4774 855:916 JLINK_ReadMemU32(0xE000E004, 0x0001 Items, ...) -- CPU_ReadMem(4 bytes @ 0xE000E004) - Data: 02 00 00 00  returns 0x01 (0000ms, 1169ms total)
T4774 855:917 JLINK_WriteMemEx(0xE0001000, 0x001C Bytes, ..., Flags = 0x02000004) - Data: 01 00 00 00 00 00 00 00 00 00 00 00 00 00 00 00 ... -- CPU_WriteMem(28 bytes @ 0xE0001000)  returns 0x1C (0001ms, 1171ms total)
T4774 855:918 JLINK_ReadReg(R15 (PC))  returns 0x0800019C (0000ms, 1171ms total)
T4774 855:918 JLINK_ReadReg(XPSR)  returns 0x01000000 (0000ms, 1171ms total)
T4774 855:928 JLINK_ReadMemEx(0xE0001004, 0x0004 Bytes, ..., Flags = 0x02000000) - Data: 00 00 00 00  returns 0x04 (0000ms, 1171ms total)
T4774 856:039 JLINK_SetResetType(JLINKARM_CM3_RESET_TYPE_NORMAL)  returns JLINKARM_CM3_RESET_TYPE_NORMAL (0001ms, 1172ms total)
T4774 856:040 JLINK_Reset() -- CPU_WriteMem(4 bytes @ 0xE000EDF0) -- CPU_WriteMem(4 bytes @ 0xE000EDFC)Reset: Halt core after reset via DEMCR.VC_CORERESET.Reset: Reset device via AIRCR.SYSRESETREQ. -- CPU_WriteMem(4 bytes @ 0xE000ED0C) -- CPU_ReadMem(4 bytes @ 0xE000EDF0) -- CPU_ReadMem(4 bytes @ 0xE000EDF0) -- CPU_WriteMem(4 bytes @ 0xE000EDF0) -- CPU_WriteMem(4 bytes @ 0xE000EDFC) -- CPU_ReadMem(4 bytes @ 0xE000EDF0) -- CPU_WriteMem(4 bytes @ 0xE000EDFC) -- CPU_WriteMem(4 bytes @ 0xE0001028)
 -- CPU_WriteMem(4 bytes @ 0xE0001038) -- CPU_WriteMem(4 bytes @ 0xE0001048) -- CPU_WriteMem(4 bytes @ 0xE0001058) -- CPU_WriteMem(4 bytes @ 0xE0002000) -- CPU_ReadMem(4 bytes @ 0xE000EDFC) -- CPU_ReadMem(4 bytes @ 0xE0001000) (0065ms, 1237ms total)
T4774 856:106 JLINK_ReadReg(R15 (PC))  returns 0x0800019C (0000ms, 1237ms total)
T4774 856:106 JLINK_ReadReg(XPSR)  returns 0x01000000 (0000ms, 1237ms total)
T4774 856:352 JLINK_ReadMemEx(0x0800019C, 0x003C Bytes, ..., Flags = 0x02000000) -- CPU_ReadMem(128 bytes @ 0x08000180) -- Updating C cache (128 bytes @ 0x08000180) -- Read from C cache (60 bytes @ 0x0800019C) - Data: 06 48 80 47 06 48 00 47 FE E7 FE E7 FE E7 FE E7 ...  returns 0x3C (0002ms, 1239ms total)
T4774 858:463 JLINK_ReadReg(R0)  returns 0x00000000 (0001ms, 1240ms total)
T4774 858:464 JLINK_ReadReg(R1)  returns 0x00000000 (0000ms, 1240ms total)
T4774 858:464 JLINK_ReadReg(R2)  returns 0x00000000 (0000ms, 1240ms total)
T4774 858:464 JLINK_ReadReg(R3)  returns 0x00000000 (0001ms, 1241ms total)
T4774 858:465 JLINK_ReadReg(R4)  returns 0x00000000 (0000ms, 1241ms total)
T4774 858:465 JLINK_ReadReg(R5)  returns 0x00000000 (0000ms, 1241ms total)
T4774 858:465 JLINK_ReadReg(R6)  returns 0x00000000 (0000ms, 1241ms total)
T4774 858:465 JLINK_ReadReg(R7)  returns 0x00000000 (0000ms, 1241ms total)
T4774 858:465 JLINK_ReadReg(R8)  returns 0x00000000 (0001ms, 1242ms total)
T4774 858:466 JLINK_ReadReg(R9)  returns 0x00000000 (0000ms, 1242ms total)
T4774 858:466 JLINK_ReadReg(R10)  returns 0x00000000 (0000ms, 1242ms total)
T4774 858:466 JLINK_ReadReg(R11)  returns 0x00000000 (0000ms, 1242ms total)
T4774 858:466 JLINK_ReadReg(R12)  returns 0x00000000 (0000ms, 1242ms total)
T4774 858:466 JLINK_ReadReg(R13 (SP))  returns 0x2000D880 (0001ms, 1243ms total)
T4774 858:467 JLINK_ReadReg(R14)  returns 0xFFFFFFFF (0000ms, 1243ms total)
T4774 858:467 JLINK_ReadReg(R15 (PC))  returns 0x0800019C (0000ms, 1243ms total)
T4774 858:467 JLINK_ReadReg(XPSR)  returns 0x01000000 (0000ms, 1243ms total)
T4774 858:467 JLINK_ReadReg(MSP)  returns 0x2000D880 (0000ms, 1243ms total)
T4774 858:467 JLINK_ReadReg(PSP)  returns 0x00000000 (0001ms, 1244ms total)
T4774 858:468 JLINK_ReadReg(CFBP)  returns 0x00000000 (0000ms, 1244ms total)
T4774 858:468 JLINK_ReadReg(FPSCR)  returns 0x00000000 (0003ms, 1247ms total)
T4774 858:471 JLINK_ReadReg(FPS0)  returns 0x00000000 (0000ms, 1247ms total)
T4774 858:471 JLINK_ReadReg(FPS1)  returns 0x00000000 (0000ms, 1247ms total)
T4774 858:471 JLINK_ReadReg(FPS2)  returns 0x00000000 (0000ms, 1247ms total)
T4774 858:471 JLINK_ReadReg(FPS3)  returns 0x00000000 (0000ms, 1247ms total)
T4774 858:472 JLINK_ReadReg(FPS4)  returns 0x00000000 (0000ms, 1248ms total)
T4774 858:472 JLINK_ReadReg(FPS5)  returns 0x00000000 (0000ms, 1248ms total)
T4774 858:472 JLINK_ReadReg(FPS6)  returns 0x00000000 (0000ms, 1248ms total)
T4774 858:472 JLINK_ReadReg(FPS7)  returns 0x00000000 (0000ms, 1248ms total)
T4774 858:472 JLINK_ReadReg(FPS8)  returns 0x00000000 (0001ms, 1249ms total)
T4774 858:473 JLINK_ReadReg(FPS9)  returns 0x00000000 (0000ms, 1249ms total)
T4774 858:473 JLINK_ReadReg(FPS10)  returns 0x00000000 (0000ms, 1249ms total)
T4774 858:473 JLINK_ReadReg(FPS11)  returns 0x00000000 (0000ms, 1249ms total)
T4774 858:473 JLINK_ReadReg(FPS12)  returns 0x00000000 (0000ms, 1249ms total)
T4774 858:473 JLINK_ReadReg(FPS13)  returns 0x00000000 (0001ms, 1250ms total)
T4774 858:474 JLINK_ReadReg(FPS14)  returns 0x00000000 (0000ms, 1250ms total)
T4774 858:474 JLINK_ReadReg(FPS15)  returns 0x00000000 (0000ms, 1250ms total)
T4774 858:474 JLINK_ReadReg(FPS16)  returns 0x00000000 (0000ms, 1250ms total)
T4774 858:474 JLINK_ReadReg(FPS17)  returns 0x00000000 (0001ms, 1251ms total)
T4774 858:475 JLINK_ReadReg(FPS18)  returns 0x00000000 (0000ms, 1251ms total)
T4774 858:475 JLINK_ReadReg(FPS19)  returns 0x00000000 (0000ms, 1251ms total)
T4774 858:475 JLINK_ReadReg(FPS20)  returns 0x00000000 (0000ms, 1251ms total)
T4774 858:475 JLINK_ReadReg(FPS21)  returns 0x00000000 (0000ms, 1251ms total)
T4774 858:475 JLINK_ReadReg(FPS22)  returns 0x00000000 (0001ms, 1252ms total)
T4774 858:476 JLINK_ReadReg(FPS23)  returns 0x00000000 (0000ms, 1252ms total)
T4774 858:476 JLINK_ReadReg(FPS24)  returns 0x00000000 (0000ms, 1252ms total)
T4774 858:476 JLINK_ReadReg(FPS25)  returns 0x00000000 (0000ms, 1252ms total)
T4774 858:476 JLINK_ReadReg(FPS26)  returns 0x00000000 (0000ms, 1252ms total)
T4774 858:476 JLINK_ReadReg(FPS27)  returns 0x00000000 (0001ms, 1253ms total)
T4774 858:477 JLINK_ReadReg(FPS28)  returns 0x00000000 (0000ms, 1253ms total)
T4774 858:477 JLINK_ReadReg(FPS29)  returns 0x00000000 (0000ms, 1253ms total)
T4774 858:477 JLINK_ReadReg(FPS30)  returns 0x00000000 (0000ms, 1253ms total)
T4774 858:477 JLINK_ReadReg(FPS31)  returns 0x00000000 (0000ms, 1253ms total)
T3C74 858:524 JLINK_ReadMemEx(0x0800019C, 0x0002 Bytes, ..., Flags = 0x02000000) -- Read from C cache (2 bytes @ 0x0800019C) - Data: 06 48  returns 0x02 (0000ms, 1253ms total)
T3C74 858:524 JLINK_SetBPEx(Addr = 0x08004190, Type = 0xFFFFFFF2)  returns 0x00000001 (0000ms, 1253ms total)
T3C74 858:524 JLINK_SetBPEx(Addr = 0x08003624, Type = 0xFFFFFFF2)  returns 0x00000002 (0000ms, 1253ms total)
T3C74 858:524 JLINK_SetBPEx(Addr = 0x0800525A, Type = 0xFFFFFFF2)  returns 0x00000003 (0001ms, 1254ms total)
T3C74 858:525 JLINK_SetBPEx(Addr = 0x080042E2, Type = 0xFFFFFFF2)  returns 0x00000004 (0000ms, 1254ms total)
T3C74 858:525 JLINK_SetBPEx(Addr = 0x08003D4E, Type = 0xFFFFFFF2)  returns 0x00000005 (0000ms, 1254ms total)
T3C74 858:525 JLINK_Go() -- CPU_ReadMem(4 bytes @ 0xE0001000) -- CPU_WriteMem(4 bytes @ 0xE0002008) -- CPU_WriteMem(4 bytes @ 0xE000200C) -- CPU_WriteMem(4 bytes @ 0xE0002010) -- CPU_WriteMem(4 bytes @ 0xE0002014) -- CPU_WriteMem(4 bytes @ 0xE0002018) -- CPU_WriteMem(4 bytes @ 0xE000201C) -- CPU_WriteMem(4 bytes @ 0xE0001004) (0003ms, 1257ms total)
T3C74 858:629 JLINK_IsHalted()  returns TRUE (0002ms, 1259ms total)
T3C74 858:631 JLINK_Halt()  returns 0x00 (0001ms, 1258ms total)
T3C74 858:632 JLINK_IsHalted()  returns TRUE (0000ms, 1258ms total)
T3C74 858:632 JLINK_IsHalted()  returns TRUE (0000ms, 1258ms total)
T3C74 858:632 JLINK_IsHalted()  returns TRUE (0001ms, 1259ms total)
T3C74 858:633 JLINK_ReadReg(R15 (PC))  returns 0x08004190 (0000ms, 1258ms total)
T3C74 858:633 JLINK_ReadReg(XPSR)  returns 0x61000000 (0000ms, 1258ms total)
T3C74 858:633 JLINK_ClrBPEx(BPHandle = 0x00000001)  returns 0x00 (0000ms, 1258ms total)
T3C74 858:633 JLINK_ClrBPEx(BPHandle = 0x00000002)  returns 0x00 (0001ms, 1259ms total)
T3C74 858:634 JLINK_ClrBPEx(BPHandle = 0x00000003)  returns 0x00 (0000ms, 1259ms total)
T3C74 858:634 JLINK_ClrBPEx(BPHandle = 0x00000004)  returns 0x00 (0000ms, 1259ms total)
T3C74 858:634 JLINK_ClrBPEx(BPHandle = 0x00000005)  returns 0x00 (0000ms, 1259ms total)
T3C74 858:634 JLINK_ReadMemU32(0xE000ED30, 0x0001 Items, ...) -- CPU_ReadMem(4 bytes @ 0xE000ED30) - Data: 02 00 00 00  returns 0x01 (0001ms, 1260ms total)
T3C74 858:635 JLINK_ReadMemU32(0xE0001028, 0x0001 Items, ...) -- CPU_ReadMem(4 bytes @ 0xE0001028) - Data: 00 00 00 00  returns 0x01 (0001ms, 1261ms total)
T3C74 858:636 JLINK_ReadMemU32(0xE0001038, 0x0001 Items, ...) -- CPU_ReadMem(4 bytes @ 0xE0001038) - Data: 00 02 00 00  returns 0x01 (0000ms, 1261ms total)
T3C74 858:637 JLINK_ReadMemU32(0xE0001048, 0x0001 Items, ...) -- CPU_ReadMem(4 bytes @ 0xE0001048) - Data: 00 00 00 00  returns 0x01 (0001ms, 1263ms total)
T3C74 858:638 JLINK_ReadMemU32(0xE0001058, 0x0001 Items, ...) -- CPU_ReadMem(4 bytes @ 0xE0001058) - Data: 00 00 00 00  returns 0x01 (0001ms, 1264ms total)
T3C74 858:639 JLINK_ReadReg(R0)  returns 0x08004191 (0000ms, 1264ms total)
T3C74 858:639 JLINK_ReadReg(R1)  returns 0x2000D880 (0000ms, 1264ms total)
T3C74 858:639 JLINK_ReadReg(R2)  returns 0x00000000 (0001ms, 1265ms total)
T3C74 858:640 JLINK_ReadReg(R3)  returns 0x08002803 (0000ms, 1265ms total)
T3C74 858:640 JLINK_ReadReg(R4)  returns 0x080063F0 (0000ms, 1265ms total)
T3C74 858:640 JLINK_ReadReg(R5)  returns 0x080063F0 (0000ms, 1265ms total)
T3C74 858:640 JLINK_ReadReg(R6)  returns 0x00000000 (0000ms, 1265ms total)
T3C74 858:641 JLINK_ReadReg(R7)  returns 0x00000000 (0000ms, 1266ms total)
T3C74 858:641 JLINK_ReadReg(R8)  returns 0x00000000 (0000ms, 1266ms total)
T3C74 858:641 JLINK_ReadReg(R9)  returns 0x00000000 (0001ms, 1267ms total)
T3C74 858:642 JLINK_ReadReg(R10)  returns 0x00000000 (0000ms, 1267ms total)
T3C74 858:642 JLINK_ReadReg(R11)  returns 0x00000000 (0000ms, 1267ms total)
T3C74 858:642 JLINK_ReadReg(R12)  returns 0x00000000 (0000ms, 1267ms total)
T3C74 858:642 JLINK_ReadReg(R13 (SP))  returns 0x2000D880 (0001ms, 1268ms total)
T3C74 858:643 JLINK_ReadReg(R14)  returns 0x0800092D (0000ms, 1268ms total)
T3C74 858:643 JLINK_ReadReg(R15 (PC))  returns 0x08004190 (0000ms, 1268ms total)
T3C74 858:644 JLINK_ReadReg(XPSR)  returns 0x61000000 (0000ms, 1269ms total)
T3C74 858:644 JLINK_ReadReg(MSP)  returns 0x2000D880 (0000ms, 1269ms total)
T3C74 858:644 JLINK_ReadReg(PSP)  returns 0x00000000 (0000ms, 1269ms total)
T3C74 858:644 JLINK_ReadReg(CFBP)  returns 0x00000000 (0001ms, 1270ms total)
T3C74 858:645 JLINK_ReadReg(FPSCR)  returns 0x00000000 (0003ms, 1273ms total)
T3C74 858:648 JLINK_ReadReg(FPS0)  returns 0x00000000 (0000ms, 1273ms total)
T3C74 858:648 JLINK_ReadReg(FPS1)  returns 0x00000000 (0000ms, 1273ms total)
T3C74 858:648 JLINK_ReadReg(FPS2)  returns 0x00000000 (0001ms, 1274ms total)
T3C74 858:649 JLINK_ReadReg(FPS3)  returns 0x00000000 (0000ms, 1274ms total)
T3C74 858:649 JLINK_ReadReg(FPS4)  returns 0x00000000 (0000ms, 1274ms total)
T3C74 858:649 JLINK_ReadReg(FPS5)  returns 0x00000000 (0000ms, 1274ms total)
T3C74 858:649 JLINK_ReadReg(FPS6)  returns 0x00000000 (0000ms, 1274ms total)
T3C74 858:650 JLINK_ReadReg(FPS7)  returns 0x00000000 (0000ms, 1274ms total)
T3C74 858:650 JLINK_ReadReg(FPS8)  returns 0x00000000 (0000ms, 1274ms total)
T3C74 858:650 JLINK_ReadReg(FPS9)  returns 0x00000000 (0000ms, 1274ms total)
T3C74 858:650 JLINK_ReadReg(FPS10)  returns 0x00000000 (0000ms, 1274ms total)
T3C74 858:650 JLINK_ReadReg(FPS11)  returns 0x00000000 (0001ms, 1275ms total)
T3C74 858:651 JLINK_ReadReg(FPS12)  returns 0x00000000 (0000ms, 1275ms total)
T3C74 858:651 JLINK_ReadReg(FPS13)  returns 0x00000000 (0000ms, 1275ms total)
T3C74 858:651 JLINK_ReadReg(FPS14)  returns 0x00000000 (0000ms, 1275ms total)
T3C74 858:651 JLINK_ReadReg(FPS15)  returns 0x00000000 (0000ms, 1275ms total)
T3C74 858:652 JLINK_ReadReg(FPS16)  returns 0x00000000 (0000ms, 1276ms total)
T3C74 858:652 JLINK_ReadReg(FPS17)  returns 0x00000000 (0000ms, 1276ms total)
T3C74 858:652 JLINK_ReadReg(FPS18)  returns 0x00000000 (0000ms, 1276ms total)
T3C74 858:652 JLINK_ReadReg(FPS19)  returns 0x00000000 (0000ms, 1276ms total)
T3C74 858:652 JLINK_ReadReg(FPS20)  returns 0x00000000 (0001ms, 1277ms total)
T3C74 858:653 JLINK_ReadReg(FPS21)  returns 0x00000000 (0000ms, 1277ms total)
T3C74 858:653 JLINK_ReadReg(FPS22)  returns 0x00000000 (0000ms, 1277ms total)
T3C74 858:653 JLINK_ReadReg(FPS23)  returns 0x00000000 (0000ms, 1277ms total)
T3C74 858:653 JLINK_ReadReg(FPS24)  returns 0x00000000 (0001ms, 1278ms total)
T3C74 858:654 JLINK_ReadReg(FPS25)  returns 0x00000000 (0000ms, 1278ms total)
T3C74 858:654 JLINK_ReadReg(FPS26)  returns 0x00000000 (0000ms, 1278ms total)
T3C74 858:654 JLINK_ReadReg(FPS27)  returns 0x00000000 (0000ms, 1278ms total)
T3C74 858:654 JLINK_ReadReg(FPS28)  returns 0x00000000 (0001ms, 1279ms total)
T3C74 858:655 JLINK_ReadReg(FPS29)  returns 0x00000000 (0000ms, 1279ms total)
T3C74 858:655 JLINK_ReadReg(FPS30)  returns 0x00000000 (0000ms, 1279ms total)
T3C74 858:655 JLINK_ReadReg(FPS31)  returns 0x00000000 (0000ms, 1279ms total)
T4774 858:662 JLINK_ReadMemU32(0xE0001004, 0x0001 Items, ...) -- CPU_ReadMem(4 bytes @ 0xE0001004) - Data: E9 55 01 00  returns 0x01 (0002ms, 1281ms total)
T4774 858:667 JLINK_ReadMemEx(0x080040A8, 0x003C Bytes, ..., Flags = 0x02000000) -- CPU_ReadMem(128 bytes @ 0x08004080) -- Updating C cache (128 bytes @ 0x08004080) -- Read from C cache (60 bytes @ 0x080040A8) - Data: 01 4A C2 E9 00 10 70 47 E4 01 00 20 00 F0 7C FA ...  returns 0x3C (0002ms, 1283ms total)
T4774 858:669 JLINK_ReadMemEx(0x080040F4, 0x003C Bytes, ..., Flags = 0x02000000) -- CPU_ReadMem(64 bytes @ 0x08004100) -- Updating C cache (64 bytes @ 0x08004100) -- Read from C cache (60 bytes @ 0x080040F4) - Data: 03 49 88 42 01 D1 01 20 70 47 00 20 70 47 00 00 ...  returns 0x3C (0001ms, 1284ms total)
T4774 858:671 JLINK_ReadMemEx(0x08004130, 0x003C Bytes, ..., Flags = 0x02000000) -- CPU_ReadMem(64 bytes @ 0x08004140) -- Updating C cache (64 bytes @ 0x08004140) -- Read from C cache (60 bytes @ 0x08004130) - Data: 01 20 70 47 00 20 70 47 F8 01 00 20 0F 48 10 B5 ...  returns 0x3C (0001ms, 1286ms total)
T4774 858:672 JLINK_ReadMemEx(0x0800416C, 0x003C Bytes, ..., Flags = 0x02000000) -- CPU_ReadMem(64 bytes @ 0x08004180) -- Updating C cache (64 bytes @ 0x08004180) -- Read from C cache (60 bytes @ 0x0800416C) - Data: FF F7 B9 FA 20 46 BD E8 10 40 01 F0 F8 B9 10 BD ...  returns 0x3C (0001ms, 1287ms total)
T4774 867:730 JLINK_ReadMemEx(0x080041A8, 0x003C Bytes, ..., Flags = 0x02000000) -- CPU_ReadMem(64 bytes @ 0x080041C0) -- Updating C cache (64 bytes @ 0x080041C0) -- Read from C cache (60 bytes @ 0x080041A8) - Data: 00 F0 12 F9 FE F7 A4 FF 00 F0 15 F9 FE E7 70 B5 ...  returns 0x3C (0002ms, 1289ms total)
T3C74 894:753 JLINK_ReadMemEx(0x08004190, 0x0002 Bytes, ..., Flags = 0x02000000) -- Read from C cache (2 bytes @ 0x08004190) - Data: FD F7  returns 0x02 (0000ms, 1289ms total)
T3C74 894:753 JLINK_SetBPEx(Addr = 0x08003624, Type = 0xFFFFFFF2)  returns 0x00000006 (0000ms, 1289ms total)
T3C74 894:754 JLINK_SetBPEx(Addr = 0x0800525A, Type = 0xFFFFFFF2)  returns 0x00000007 (0000ms, 1289ms total)
T3C74 894:754 JLINK_SetBPEx(Addr = 0x080042E2, Type = 0xFFFFFFF2)  returns 0x00000008 (0000ms, 1289ms total)
T3C74 894:754 JLINK_SetBPEx(Addr = 0x08003D4E, Type = 0xFFFFFFF2)  returns 0x00000009 (0000ms, 1289ms total)
T3C74 894:754 JLINK_Go() -- CPU_ReadMem(4 bytes @ 0xE0001000) -- CPU_WriteMem(4 bytes @ 0xE0002008) -- CPU_WriteMem(4 bytes @ 0xE000200C) -- CPU_WriteMem(4 bytes @ 0xE0002010) -- CPU_WriteMem(4 bytes @ 0xE0002014) -- CPU_WriteMem(4 bytes @ 0xE0002018) (0003ms, 1292ms total)
T3C74 894:857 JLINK_IsHalted()  returns TRUE (0003ms, 1295ms total)
T3C74 894:860 JLINK_Halt()  returns 0x00 (0001ms, 1293ms total)
T3C74 894:861 JLINK_IsHalted()  returns TRUE (0001ms, 1294ms total)
T3C74 894:862 JLINK_IsHalted()  returns TRUE (0001ms, 1294ms total)
T3C74 894:863 JLINK_IsHalted()  returns TRUE (0001ms, 1294ms total)
T3C74 894:864 JLINK_ReadReg(R15 (PC))  returns 0x08003624 (0000ms, 1293ms total)
T3C74 894:865 JLINK_ReadReg(XPSR)  returns 0x01000000 (0000ms, 1294ms total)
T3C74 894:865 JLINK_ClrBPEx(BPHandle = 0x00000006)  returns 0x00 (0001ms, 1295ms total)
T3C74 894:866 JLINK_ClrBPEx(BPHandle = 0x00000007)  returns 0x00 (0001ms, 1296ms total)
T3C74 894:867 JLINK_ClrBPEx(BPHandle = 0x00000008)  returns 0x00 (0001ms, 1297ms total)
T3C74 894:868 JLINK_ClrBPEx(BPHandle = 0x00000009)  returns 0x00 (0001ms, 1298ms total)
T3C74 894:869 JLINK_ReadMemU32(0xE000ED30, 0x0001 Items, ...) -- CPU_ReadMem(4 bytes @ 0xE000ED30) - Data: 02 00 00 00  returns 0x01 (0002ms, 1300ms total)
T3C74 894:871 JLINK_ReadMemU32(0xE0001028, 0x0001 Items, ...) -- CPU_ReadMem(4 bytes @ 0xE0001028) - Data: 00 00 00 00  returns 0x01 (0002ms, 1302ms total)
T3C74 894:873 JLINK_ReadMemU32(0xE0001038, 0x0001 Items, ...) -- CPU_ReadMem(4 bytes @ 0xE0001038) - Data: 00 02 00 00  returns 0x01 (0001ms, 1303ms total)
T3C74 894:874 JLINK_ReadMemU32(0xE0001048, 0x0001 Items, ...) -- CPU_ReadMem(4 bytes @ 0xE0001048) - Data: 00 00 00 00  returns 0x01 (0002ms, 1305ms total)
T3C74 894:876 JLINK_ReadMemU32(0xE0001058, 0x0001 Items, ...) -- CPU_ReadMem(4 bytes @ 0xE0001058) - Data: 00 00 00 00  returns 0x01 (0001ms, 1306ms total)
T3C74 894:877 JLINK_ReadReg(R0)  returns 0x20001C1C (0001ms, 1307ms total)
T3C74 894:878 JLINK_ReadReg(R1)  returns 0x00000080 (0000ms, 1307ms total)
T3C74 894:878 JLINK_ReadReg(R2)  returns 0x00000009 (0000ms, 1307ms total)
T3C74 894:878 JLINK_ReadReg(R3)  returns 0x00000007 (0001ms, 1308ms total)
T3C74 894:879 JLINK_ReadReg(R4)  returns 0x20001C1C (0000ms, 1308ms total)
T3C74 894:879 JLINK_ReadReg(R5)  returns 0x2000BC20 (0001ms, 1309ms total)
T3C74 894:880 JLINK_ReadReg(R6)  returns 0x20001C1C (0000ms, 1309ms total)
T3C74 894:880 JLINK_ReadReg(R7)  returns 0x00000000 (0000ms, 1309ms total)
T3C74 894:881 JLINK_ReadReg(R8)  returns 0x00000000 (0000ms, 1310ms total)
T3C74 894:881 JLINK_ReadReg(R9)  returns 0x00000000 (0000ms, 1310ms total)
T3C74 894:881 JLINK_ReadReg(R10)  returns 0x00000000 (0001ms, 1311ms total)
T3C74 894:882 JLINK_ReadReg(R11)  returns 0x00000000 (0000ms, 1311ms total)
T3C74 894:882 JLINK_ReadReg(R12)  returns 0x00C00000 (0000ms, 1311ms total)
T3C74 894:882 JLINK_ReadReg(R13 (SP))  returns 0x2000D858 (0000ms, 1311ms total)
T3C74 894:883 JLINK_ReadReg(R14)  returns 0x08003539 (0000ms, 1312ms total)
T3C74 894:883 JLINK_ReadReg(R15 (PC))  returns 0x08003624 (0000ms, 1312ms total)
T3C74 894:883 JLINK_ReadReg(XPSR)  returns 0x01000000 (0000ms, 1312ms total)
T3C74 894:883 JLINK_ReadReg(MSP)  returns 0x2000D858 (0000ms, 1312ms total)
T3C74 894:883 JLINK_ReadReg(PSP)  returns 0x00000000 (0001ms, 1313ms total)
T3C74 894:884 JLINK_ReadReg(CFBP)  returns 0x00000000 (0000ms, 1313ms total)
T3C74 894:884 JLINK_ReadReg(FPSCR)  returns 0x00000000 (0003ms, 1316ms total)
T3C74 894:887 JLINK_ReadReg(FPS0)  returns 0x00000000 (0000ms, 1316ms total)
T3C74 894:887 JLINK_ReadReg(FPS1)  returns 0x00000000 (0000ms, 1316ms total)
T3C74 894:887 JLINK_ReadReg(FPS2)  returns 0x00000000 (0000ms, 1316ms total)
T3C74 894:888 JLINK_ReadReg(FPS3)  returns 0x00000000 (0000ms, 1317ms total)
T3C74 894:888 JLINK_ReadReg(FPS4)  returns 0x00000000 (0000ms, 1317ms total)
T3C74 894:888 JLINK_ReadReg(FPS5)  returns 0x00000000 (0000ms, 1317ms total)
T3C74 894:888 JLINK_ReadReg(FPS6)  returns 0x00000000 (0000ms, 1317ms total)
T3C74 894:888 JLINK_ReadReg(FPS7)  returns 0x00000000 (0001ms, 1318ms total)
T3C74 894:889 JLINK_ReadReg(FPS8)  returns 0x00000000 (0000ms, 1318ms total)
T3C74 894:889 JLINK_ReadReg(FPS9)  returns 0x00000000 (0000ms, 1318ms total)
T3C74 894:889 JLINK_ReadReg(FPS10)  returns 0x00000000 (0000ms, 1318ms total)
T3C74 894:890 JLINK_ReadReg(FPS11)  returns 0x00000000 (0000ms, 1319ms total)
T3C74 894:890 JLINK_ReadReg(FPS12)  returns 0x00000000 (0000ms, 1319ms total)
T3C74 894:890 JLINK_ReadReg(FPS13)  returns 0x00000000 (0000ms, 1319ms total)
T3C74 894:890 JLINK_ReadReg(FPS14)  returns 0x00000000 (0000ms, 1319ms total)
T3C74 894:890 JLINK_ReadReg(FPS15)  returns 0x00000000 (0001ms, 1320ms total)
T3C74 894:891 JLINK_ReadReg(FPS16)  returns 0x00000000 (0000ms, 1320ms total)
T3C74 894:891 JLINK_ReadReg(FPS17)  returns 0x00000000 (0000ms, 1320ms total)
T3C74 894:891 JLINK_ReadReg(FPS18)  returns 0x00000000 (0000ms, 1320ms total)
T3C74 894:891 JLINK_ReadReg(FPS19)  returns 0x00000000 (0000ms, 1320ms total)
T3C74 894:891 JLINK_ReadReg(FPS20)  returns 0x00000000 (0000ms, 1320ms total)
T3C74 894:891 JLINK_ReadReg(FPS21)  returns 0x00000000 (0001ms, 1321ms total)
T3C74 894:892 JLINK_ReadReg(FPS22)  returns 0x00000000 (0000ms, 1321ms total)
T3C74 894:892 JLINK_ReadReg(FPS23)  returns 0x00000000 (0000ms, 1321ms total)
T3C74 894:892 JLINK_ReadReg(FPS24)  returns 0x00000000 (0000ms, 1321ms total)
T3C74 894:892 JLINK_ReadReg(FPS25)  returns 0x00000000 (0000ms, 1321ms total)
T3C74 894:893 JLINK_ReadReg(FPS26)  returns 0x00000000 (0000ms, 1322ms total)
T3C74 894:893 JLINK_ReadReg(FPS27)  returns 0x00000000 (0000ms, 1322ms total)
T3C74 894:893 JLINK_ReadReg(FPS28)  returns 0x00000000 (0000ms, 1322ms total)
T3C74 894:893 JLINK_ReadReg(FPS29)  returns 0x00000000 (0000ms, 1322ms total)
T3C74 894:893 JLINK_ReadReg(FPS30)  returns 0x00000000 (0000ms, 1322ms total)
T3C74 894:893 JLINK_ReadReg(FPS31)  returns 0x00000000 (0001ms, 1323ms total)
T4774 894:894 JLINK_ReadMemEx(0x2000D85C, 0x0004 Bytes, ..., Flags = 0x02000000) -- CPU_ReadMem(64 bytes @ 0x2000D840) -- Updating C cache (64 bytes @ 0x2000D840) -- Read from C cache (4 bytes @ 0x2000D85C) - Data: 5D 58 00 08  returns 0x04 (0001ms, 1324ms total)
T4774 894:895 JLINK_ReadMemEx(0x2000D858, 0x0004 Bytes, ..., Flags = 0x02000000) -- Read from C cache (4 bytes @ 0x2000D858) - Data: 20 1C 00 20  returns 0x04 (0000ms, 1324ms total)
T4774 894:896 JLINK_ReadMemEx(0x2000D86C, 0x0004 Bytes, ..., Flags = 0x02000000) -- Read from C cache (4 bytes @ 0x2000D86C) - Data: 0D 56 00 08  returns 0x04 (0000ms, 1325ms total)
T4774 894:896 JLINK_ReadMemEx(0x2000D860, 0x0004 Bytes, ..., Flags = 0x02000000) -- Read from C cache (4 bytes @ 0x2000D860) - Data: F0 63 00 08  returns 0x04 (0001ms, 1326ms total)
T4774 894:897 JLINK_ReadMemEx(0x2000D864, 0x0004 Bytes, ..., Flags = 0x02000000) -- Read from C cache (4 bytes @ 0x2000D864) - Data: F0 63 00 08  returns 0x04 (0000ms, 1326ms total)
T4774 894:897 JLINK_ReadMemEx(0x2000D868, 0x0004 Bytes, ..., Flags = 0x02000000) -- Read from C cache (4 bytes @ 0x2000D868) - Data: 00 00 00 00  returns 0x04 (0001ms, 1327ms total)
T4774 894:898 JLINK_ReadMemEx(0x2000D874, 0x0004 Bytes, ..., Flags = 0x02000000) -- Read from C cache (4 bytes @ 0x2000D874) - Data: D7 43 00 08  returns 0x04 (0000ms, 1327ms total)
T4774 894:898 JLINK_ReadMemEx(0x2000D870, 0x0004 Bytes, ..., Flags = 0x02000000) -- Read from C cache (4 bytes @ 0x2000D870) - Data: F0 63 00 08  returns 0x04 (0000ms, 1327ms total)
T4774 894:898 JLINK_ReadMemEx(0x2000D87C, 0x0004 Bytes, ..., Flags = 0x02000000) -- Read from C cache (4 bytes @ 0x2000D87C) - Data: AD 41 00 08  returns 0x04 (0000ms, 1327ms total)
T4774 894:898 JLINK_ReadMemEx(0x2000D878, 0x0004 Bytes, ..., Flags = 0x02000000) -- Read from C cache (4 bytes @ 0x2000D878) - Data: F0 63 00 08  returns 0x04 (0001ms, 1328ms total)
T4774 894:899 JLINK_ReadMemEx(0x00000000, 0x0004 Bytes, ..., Flags = 0x02000000) -- CPU_ReadMem(4 bytes @ 0x00000004) -- CPU_ReadMem(64 bytes @ 0x08000000) -- Updating C cache (64 bytes @ 0x08000000) -- Read from C cache (4 bytes @ 0x08000000) - Data: 80 D8 00 20  returns 0x04 (0002ms, 1330ms total)
T4774 894:910 JLINK_ReadMemU32(0xE0001004, 0x0001 Items, ...) -- CPU_ReadMem(4 bytes @ 0xE0001004) - Data: F2 B1 01 00  returns 0x01 (0001ms, 1331ms total)
T4774 894:911 JLINK_ReadMemEx(0x08003524, 0x003C Bytes, ..., Flags = 0x02000000) -- CPU_ReadMem(128 bytes @ 0x08003500) -- Updating C cache (128 bytes @ 0x08003500) -- Read from C cache (60 bytes @ 0x08003524) - Data: 11 43 41 62 7C BD 00 00 20 BC 00 20 10 B5 04 46 ...  returns 0x3C (0002ms, 1333ms total)
T4774 894:913 JLINK_ReadMemEx(0x08003560, 0x003C Bytes, ..., Flags = 0x02000000) -- CPU_ReadMem(64 bytes @ 0x08003580) -- Updating C cache (64 bytes @ 0x08003580) -- Read from C cache (60 bytes @ 0x08003560) - Data: 40 1E 04 44 32 46 39 46 20 46 00 F0 24 FE 00 9C ...  returns 0x3C (0001ms, 1334ms total)
T4774 894:914 JLINK_ReadMemEx(0x0800359C, 0x003C Bytes, ..., Flags = 0x02000000) -- CPU_ReadMem(64 bytes @ 0x080035C0) -- Updating C cache (64 bytes @ 0x080035C0) -- Read from C cache (60 bytes @ 0x0800359C) - Data: 06 EB 80 00 40 6A FF F7 17 F9 02 46 06 EB C4 11 ...  returns 0x3C (0002ms, 1336ms total)
T4774 894:916 JLINK_ReadMemEx(0x080035D8, 0x003C Bytes, ..., Flags = 0x02000000) -- CPU_ReadMem(64 bytes @ 0x08003600) -- Updating C cache (64 bytes @ 0x08003600) -- Read from C cache (60 bytes @ 0x080035D8) - Data: 02 01 41 60 60 68 40 F0 01 00 60 60 10 BD 10 B5 ...  returns 0x3C (0001ms, 1337ms total)
T4774 894:917 JLINK_ReadMemEx(0x08003614, 0x003C Bytes, ..., Flags = 0x02000000) -- CPU_ReadMem(64 bytes @ 0x08003640) -- Updating C cache (64 bytes @ 0x08003640) -- Read from C cache (60 bytes @ 0x08003614) - Data: 2D F8 21 46 28 46 FF F7 49 FF 05 46 28 46 70 BD ...  returns 0x3C (0001ms, 1338ms total)
T4774 900:286 JLINK_ReadMemEx(0x0800405A, 0x0002 Bytes, ..., Flags = 0x02000000) -- CPU_ReadMem(64 bytes @ 0x08004040) -- Updating C cache (64 bytes @ 0x08004040) -- Read from C cache (2 bytes @ 0x0800405A) - Data: FF F7  returns 0x02 (0002ms, 1340ms total)
T4774 900:288 JLINK_ReadMemEx(0x0800405C, 0x003C Bytes, ..., Flags = 0x02000000) -- CPU_ReadMem(64 bytes @ 0x08004080) -- Updating C cache (64 bytes @ 0x08004080) -- Read from C cache (60 bytes @ 0x0800405C) - Data: 69 FF 00 F0 DF F9 BD E8 10 40 01 F0 D3 BF 00 00 ...  returns 0x3C (0003ms, 1343ms total)
T4774 900:291 JLINK_ReadMemEx(0x08004098, 0x003C Bytes, ..., Flags = 0x02000000) -- CPU_ReadMem(64 bytes @ 0x080040C0) -- Updating C cache (64 bytes @ 0x080040C0) -- Read from C cache (60 bytes @ 0x08004098) - Data: 20 48 45 4C 4C 4F 20 57 4F 52 4C 44 0D 0A 00 00 ...  returns 0x3C (0003ms, 1346ms total)
T4774 901:952 JLINK_ReadMemEx(0x080042E2, 0x0002 Bytes, ..., Flags = 0x02000000) -- CPU_ReadMem(64 bytes @ 0x080042C0) -- Updating C cache (64 bytes @ 0x080042C0) -- Read from C cache (2 bytes @ 0x080042E2) - Data: 02 20  returns 0x02 (0001ms, 1347ms total)
T4774 901:953 JLINK_ReadMemEx(0x080042E4, 0x003C Bytes, ..., Flags = 0x02000000) -- CPU_ReadMem(64 bytes @ 0x08004300) -- Updating C cache (64 bytes @ 0x08004300) -- Read from C cache (60 bytes @ 0x080042E4) - Data: FF F7 32 FD 13 A1 16 A0 FF F7 F2 FB 00 22 15 A1 ...  returns 0x3C (0001ms, 1348ms total)
T4774 901:954 JLINK_ReadMemEx(0x08004320, 0x003C Bytes, ..., Flags = 0x02000000) -- CPU_ReadMem(64 bytes @ 0x08004340) -- Updating C cache (64 bytes @ 0x08004340) -- Read from C cache (60 bytes @ 0x08004320) - Data: FC F7 31 F8 02 46 69 46 20 68 01 F0 BD FC F3 E7 ...  returns 0x3C (0001ms, 1349ms total)
T4774 907:368 JLINK_SetResetType(JLINKARM_CM3_RESET_TYPE_NORMAL)  returns JLINKARM_CM3_RESET_TYPE_NORMAL (0000ms, 1349ms total)
T4774 907:368 JLINK_Reset() -- CPU_WriteMem(4 bytes @ 0xE000EDF0) -- CPU_WriteMem(4 bytes @ 0xE000EDFC)Reset: Halt core after reset via DEMCR.VC_CORERESET.Reset: Reset device via AIRCR.SYSRESETREQ. -- CPU_WriteMem(4 bytes @ 0xE000ED0C) -- CPU_ReadMem(4 bytes @ 0xE000EDF0) -- CPU_ReadMem(4 bytes @ 0xE000EDF0) -- CPU_WriteMem(4 bytes @ 0xE000EDF0) -- CPU_WriteMem(4 bytes @ 0xE000EDFC) -- CPU_ReadMem(4 bytes @ 0xE000EDF0) -- CPU_WriteMem(4 bytes @ 0xE000EDFC) -- CPU_WriteMem(4 bytes @ 0xE0001028)
 -- CPU_WriteMem(4 bytes @ 0xE0001038) -- CPU_WriteMem(4 bytes @ 0xE0001048) -- CPU_WriteMem(4 bytes @ 0xE0001058) -- CPU_WriteMem(4 bytes @ 0xE0002000) -- CPU_ReadMem(4 bytes @ 0xE000EDFC) -- CPU_ReadMem(4 bytes @ 0xE0001000) (0072ms, 1421ms total)
T4774 907:441 JLINK_ReadReg(R15 (PC))  returns 0x0800019C (0000ms, 1421ms total)
T4774 907:441 JLINK_ReadReg(XPSR)  returns 0x01000000 (0001ms, 1422ms total)
T4774 907:442 JLINK_ReadReg(R0)  returns 0x00000000 (0001ms, 1423ms total)
T4774 907:443 JLINK_ReadReg(R1)  returns 0x00000000 (0001ms, 1424ms total)
T4774 907:444 JLINK_ReadReg(R2)  returns 0x00000000 (0001ms, 1425ms total)
T4774 907:445 JLINK_ReadReg(R3)  returns 0x00000000 (0001ms, 1426ms total)
T4774 907:446 JLINK_ReadReg(R4)  returns 0x00000000 (0000ms, 1426ms total)
T4774 907:447 JLINK_ReadReg(R5)  returns 0x00000000 (0000ms, 1427ms total)
T4774 907:447 JLINK_ReadReg(R6)  returns 0x00000000 (0001ms, 1428ms total)
T4774 907:448 JLINK_ReadReg(R7)  returns 0x00000000 (0001ms, 1429ms total)
T4774 907:449 JLINK_ReadReg(R8)  returns 0x00000000 (0001ms, 1430ms total)
T4774 907:450 JLINK_ReadReg(R9)  returns 0x00000000 (0001ms, 1431ms total)
T4774 907:451 JLINK_ReadReg(R10)  returns 0x00000000 (0000ms, 1431ms total)
T4774 907:452 JLINK_ReadReg(R11)  returns 0x00000000 (0000ms, 1432ms total)
T4774 907:452 JLINK_ReadReg(R12)  returns 0x00000000 (0001ms, 1433ms total)
T4774 907:453 JLINK_ReadReg(R13 (SP))  returns 0x2000D880 (0001ms, 1434ms total)
T4774 907:454 JLINK_ReadReg(R14)  returns 0xFFFFFFFF (0000ms, 1434ms total)
T4774 907:454 JLINK_ReadReg(R15 (PC))  returns 0x0800019C (0001ms, 1435ms total)
T4774 907:455 JLINK_ReadReg(XPSR)  returns 0x01000000 (0000ms, 1435ms total)
T4774 907:455 JLINK_ReadReg(MSP)  returns 0x2000D880 (0001ms, 1436ms total)
T4774 907:456 JLINK_ReadReg(PSP)  returns 0x00000000 (0000ms, 1436ms total)
T4774 907:456 JLINK_ReadReg(CFBP)  returns 0x00000000 (0001ms, 1437ms total)
T4774 907:457 JLINK_ReadReg(FPSCR)  returns 0x00000000 (0003ms, 1440ms total)
T4774 907:461 JLINK_ReadReg(FPS0)  returns 0x00000000 (0000ms, 1441ms total)
T4774 907:461 JLINK_ReadReg(FPS1)  returns 0x00000000 (0000ms, 1441ms total)
T4774 907:461 JLINK_ReadReg(FPS2)  returns 0x00000000 (0001ms, 1442ms total)
T4774 907:462 JLINK_ReadReg(FPS3)  returns 0x00000000 (0000ms, 1442ms total)
T4774 907:462 JLINK_ReadReg(FPS4)  returns 0x00000000 (0001ms, 1443ms total)
T4774 907:463 JLINK_ReadReg(FPS5)  returns 0x00000000 (0000ms, 1443ms total)
T4774 907:463 JLINK_ReadReg(FPS6)  returns 0x00000000 (0000ms, 1443ms total)
T4774 907:463 JLINK_ReadReg(FPS7)  returns 0x00000000 (0001ms, 1444ms total)
T4774 907:464 JLINK_ReadReg(FPS8)  returns 0x00000000 (0000ms, 1444ms total)
T4774 907:464 JLINK_ReadReg(FPS9)  returns 0x00000000 (0000ms, 1444ms total)
T4774 907:464 JLINK_ReadReg(FPS10)  returns 0x00000000 (0001ms, 1445ms total)
T4774 907:465 JLINK_ReadReg(FPS11)  returns 0x00000000 (0000ms, 1445ms total)
T4774 907:465 JLINK_ReadReg(FPS12)  returns 0x00000000 (0000ms, 1445ms total)
T4774 907:465 JLINK_ReadReg(FPS13)  returns 0x00000000 (0001ms, 1446ms total)
T4774 907:466 JLINK_ReadReg(FPS14)  returns 0x00000000 (0000ms, 1446ms total)
T4774 907:466 JLINK_ReadReg(FPS15)  returns 0x00000000 (0000ms, 1446ms total)
T4774 907:466 JLINK_ReadReg(FPS16)  returns 0x00000000 (0001ms, 1447ms total)
T4774 907:467 JLINK_ReadReg(FPS17)  returns 0x00000000 (0000ms, 1447ms total)
T4774 907:467 JLINK_ReadReg(FPS18)  returns 0x00000000 (0001ms, 1448ms total)
T4774 907:468 JLINK_ReadReg(FPS19)  returns 0x00000000 (0000ms, 1448ms total)
T4774 907:468 JLINK_ReadReg(FPS20)  returns 0x00000000 (0000ms, 1448ms total)
T4774 907:468 JLINK_ReadReg(FPS21)  returns 0x00000000 (0000ms, 1448ms total)
T4774 907:468 JLINK_ReadReg(FPS22)  returns 0x00000000 (0001ms, 1449ms total)
T4774 907:469 JLINK_ReadReg(FPS23)  returns 0x00000000 (0000ms, 1449ms total)
T4774 907:469 JLINK_ReadReg(FPS24)  returns 0x00000000 (0000ms, 1449ms total)
T4774 907:469 JLINK_ReadReg(FPS25)  returns 0x00000000 (0001ms, 1450ms total)
T4774 907:470 JLINK_ReadReg(FPS26)  returns 0x00000000 (0000ms, 1450ms total)
T4774 907:470 JLINK_ReadReg(FPS27)  returns 0x00000000 (0000ms, 1450ms total)
T4774 907:470 JLINK_ReadReg(FPS28)  returns 0x00000000 (0000ms, 1450ms total)
T4774 907:470 JLINK_ReadReg(FPS29)  returns 0x00000000 (0001ms, 1451ms total)
T4774 907:471 JLINK_ReadReg(FPS30)  returns 0x00000000 (0000ms, 1451ms total)
T4774 907:471 JLINK_ReadReg(FPS31)  returns 0x00000000 (0000ms, 1451ms total)
T4774 907:471 JLINK_ReadMemU32(0xE0001004, 0x0001 Items, ...) - Data: 00 00 00 00  returns 0x01 (0000ms, 1451ms total)
T4774 907:472 JLINK_ReadMemEx(0x08000188, 0x003C Bytes, ..., Flags = 0x02000000) -- CPU_ReadMem(128 bytes @ 0x08000180) -- Updating C cache (128 bytes @ 0x08000180) -- Read from C cache (60 bytes @ 0x08000188) - Data: DF F8 0C D0 00 F0 C0 FB 00 48 00 47 91 41 00 08 ...  returns 0x3C (0001ms, 1452ms total)
T3C74 908:849 JLINK_ReadMemEx(0x0800019C, 0x0002 Bytes, ..., Flags = 0x02000000) -- Read from C cache (2 bytes @ 0x0800019C) - Data: 06 48  returns 0x02 (0000ms, 1452ms total)
T3C74 908:849 JLINK_SetBPEx(Addr = 0x08003624, Type = 0xFFFFFFF2)  returns 0x0000000A (0000ms, 1452ms total)
T3C74 908:849 JLINK_SetBPEx(Addr = 0x0800525A, Type = 0xFFFFFFF2)  returns 0x0000000B (0001ms, 1453ms total)
T3C74 908:850 JLINK_SetBPEx(Addr = 0x080042E2, Type = 0xFFFFFFF2)  returns 0x0000000C (0000ms, 1453ms total)
T3C74 908:850 JLINK_SetBPEx(Addr = 0x08003D4E, Type = 0xFFFFFFF2)  returns 0x0000000D (0000ms, 1453ms total)
T3C74 908:850 JLINK_Go() -- CPU_ReadMem(4 bytes @ 0xE0001000) -- CPU_WriteMem(4 bytes @ 0xE0002008) -- CPU_WriteMem(4 bytes @ 0xE000200C) -- CPU_WriteMem(4 bytes @ 0xE0002010) -- CPU_WriteMem(4 bytes @ 0xE0002014) -- CPU_WriteMem(4 bytes @ 0xE0002018) -- CPU_WriteMem(4 bytes @ 0xE000201C) -- CPU_WriteMem(4 bytes @ 0xE0001004) (0003ms, 1456ms total)
T3C74 908:955 JLINK_IsHalted()  returns TRUE (0002ms, 1458ms total)
T3C74 908:957 JLINK_Halt()  returns 0x00 (0000ms, 1456ms total)
T3C74 908:958 JLINK_IsHalted()  returns TRUE (0000ms, 1457ms total)
T3C74 908:958 JLINK_IsHalted()  returns TRUE (0000ms, 1457ms total)
T3C74 908:958 JLINK_IsHalted()  returns TRUE (0000ms, 1457ms total)
T3C74 908:958 JLINK_ReadReg(R15 (PC))  returns 0x08003624 (0001ms, 1458ms total)
T3C74 908:959 JLINK_ReadReg(XPSR)  returns 0x01000000 (0000ms, 1458ms total)
T3C74 908:959 JLINK_ClrBPEx(BPHandle = 0x0000000A)  returns 0x00 (0000ms, 1458ms total)
T3C74 908:959 JLINK_ClrBPEx(BPHandle = 0x0000000B)  returns 0x00 (0001ms, 1459ms total)
T3C74 908:960 JLINK_ClrBPEx(BPHandle = 0x0000000C)  returns 0x00 (0000ms, 1459ms total)
T3C74 908:960 JLINK_ClrBPEx(BPHandle = 0x0000000D)  returns 0x00 (0000ms, 1459ms total)
T3C74 908:960 JLINK_ReadMemU32(0xE000ED30, 0x0001 Items, ...) -- CPU_ReadMem(4 bytes @ 0xE000ED30) - Data: 02 00 00 00  returns 0x01 (0001ms, 1460ms total)
T3C74 908:961 JLINK_ReadMemU32(0xE0001028, 0x0001 Items, ...) -- CPU_ReadMem(4 bytes @ 0xE0001028) - Data: 00 00 00 00  returns 0x01 (0001ms, 1461ms total)
T3C74 908:962 JLINK_ReadMemU32(0xE0001038, 0x0001 Items, ...) -- CPU_ReadMem(4 bytes @ 0xE0001038) - Data: 00 02 00 00  returns 0x01 (0001ms, 1462ms total)
T3C74 908:963 JLINK_ReadMemU32(0xE0001048, 0x0001 Items, ...) -- CPU_ReadMem(4 bytes @ 0xE0001048) - Data: 00 00 00 00  returns 0x01 (0001ms, 1463ms total)
T3C74 908:964 JLINK_ReadMemU32(0xE0001058, 0x0001 Items, ...) -- CPU_ReadMem(4 bytes @ 0xE0001058) - Data: 00 00 00 00  returns 0x01 (0001ms, 1464ms total)
T3C74 908:965 JLINK_ReadReg(R0)  returns 0x20001C1C (0001ms, 1465ms total)
T3C74 908:966 JLINK_ReadReg(R1)  returns 0x00000080 (0000ms, 1465ms total)
T3C74 908:966 JLINK_ReadReg(R2)  returns 0x00000009 (0000ms, 1465ms total)
T3C74 908:966 JLINK_ReadReg(R3)  returns 0x00000007 (0001ms, 1466ms total)
T3C74 908:967 JLINK_ReadReg(R4)  returns 0x20001C1C (0000ms, 1466ms total)
T3C74 908:967 JLINK_ReadReg(R5)  returns 0x2000BC20 (0000ms, 1466ms total)
T3C74 908:967 JLINK_ReadReg(R6)  returns 0x20001C1C (0000ms, 1466ms total)
T3C74 908:967 JLINK_ReadReg(R7)  returns 0x00000000 (0001ms, 1467ms total)
T3C74 908:968 JLINK_ReadReg(R8)  returns 0x00000000 (0000ms, 1467ms total)
T3C74 908:968 JLINK_ReadReg(R9)  returns 0x00000000 (0000ms, 1467ms total)
T3C74 908:968 JLINK_ReadReg(R10)  returns 0x00000000 (0001ms, 1468ms total)
T3C74 908:969 JLINK_ReadReg(R11)  returns 0x00000000 (0000ms, 1468ms total)
T3C74 908:969 JLINK_ReadReg(R12)  returns 0x00C00000 (0000ms, 1468ms total)
T3C74 908:969 JLINK_ReadReg(R13 (SP))  returns 0x2000D858 (0000ms, 1468ms total)
T3C74 908:970 JLINK_ReadReg(R14)  returns 0x08003539 (0000ms, 1469ms total)
T3C74 908:970 JLINK_ReadReg(R15 (PC))  returns 0x08003624 (0000ms, 1469ms total)
T3C74 908:970 JLINK_ReadReg(XPSR)  returns 0x01000000 (0000ms, 1469ms total)
T3C74 908:970 JLINK_ReadReg(MSP)  returns 0x2000D858 (0001ms, 1470ms total)
T3C74 908:971 JLINK_ReadReg(PSP)  returns 0x00000000 (0000ms, 1470ms total)
T3C74 908:971 JLINK_ReadReg(CFBP)  returns 0x00000000 (0000ms, 1470ms total)
T3C74 908:971 JLINK_ReadReg(FPSCR)  returns 0x00000000 (0004ms, 1474ms total)
T3C74 908:975 JLINK_ReadReg(FPS0)  returns 0x00000000 (0000ms, 1474ms total)
T3C74 908:976 JLINK_ReadReg(FPS1)  returns 0x00000000 (0000ms, 1474ms total)
T3C74 908:976 JLINK_ReadReg(FPS2)  returns 0x00000000 (0000ms, 1474ms total)
T3C74 908:976 JLINK_ReadReg(FPS3)  returns 0x00000000 (0001ms, 1475ms total)
T3C74 908:977 JLINK_ReadReg(FPS4)  returns 0x00000000 (0000ms, 1475ms total)
T3C74 908:977 JLINK_ReadReg(FPS5)  returns 0x00000000 (0000ms, 1475ms total)
T3C74 908:977 JLINK_ReadReg(FPS6)  returns 0x00000000 (0000ms, 1475ms total)
T3C74 908:978 JLINK_ReadReg(FPS7)  returns 0x00000000 (0000ms, 1476ms total)
T3C74 908:978 JLINK_ReadReg(FPS8)  returns 0x00000000 (0000ms, 1476ms total)
T3C74 908:978 JLINK_ReadReg(FPS9)  returns 0x00000000 (0000ms, 1476ms total)
T3C74 908:978 JLINK_ReadReg(FPS10)  returns 0x00000000 (0001ms, 1477ms total)
T3C74 908:979 JLINK_ReadReg(FPS11)  returns 0x00000000 (0000ms, 1477ms total)
T3C74 908:979 JLINK_ReadReg(FPS12)  returns 0x00000000 (0000ms, 1477ms total)
T3C74 908:979 JLINK_ReadReg(FPS13)  returns 0x00000000 (0000ms, 1477ms total)
T3C74 908:980 JLINK_ReadReg(FPS14)  returns 0x00000000 (0000ms, 1478ms total)
T3C74 908:980 JLINK_ReadReg(FPS15)  returns 0x00000000 (0000ms, 1478ms total)
T3C74 908:980 JLINK_ReadReg(FPS16)  returns 0x00000000 (0000ms, 1478ms total)
T3C74 908:980 JLINK_ReadReg(FPS17)  returns 0x00000000 (0001ms, 1479ms total)
T3C74 908:981 JLINK_ReadReg(FPS18)  returns 0x00000000 (0000ms, 1479ms total)
T3C74 908:981 JLINK_ReadReg(FPS19)  returns 0x00000000 (0000ms, 1479ms total)
T3C74 908:981 JLINK_ReadReg(FPS20)  returns 0x00000000 (0001ms, 1480ms total)
T3C74 908:982 JLINK_ReadReg(FPS21)  returns 0x00000000 (0000ms, 1480ms total)
T3C74 908:982 JLINK_ReadReg(FPS22)  returns 0x00000000 (0000ms, 1480ms total)
T3C74 908:982 JLINK_ReadReg(FPS23)  returns 0x00000000 (0000ms, 1480ms total)
T3C74 908:982 JLINK_ReadReg(FPS24)  returns 0x00000000 (0001ms, 1481ms total)
T3C74 908:983 JLINK_ReadReg(FPS25)  returns 0x00000000 (0000ms, 1481ms total)
T3C74 908:983 JLINK_ReadReg(FPS26)  returns 0x00000000 (0000ms, 1481ms total)
T3C74 908:983 JLINK_ReadReg(FPS27)  returns 0x00000000 (0001ms, 1482ms total)
T3C74 908:984 JLINK_ReadReg(FPS28)  returns 0x00000000 (0000ms, 1482ms total)
T3C74 908:984 JLINK_ReadReg(FPS29)  returns 0x00000000 (0000ms, 1482ms total)
T3C74 908:984 JLINK_ReadReg(FPS30)  returns 0x00000000 (0000ms, 1482ms total)
T3C74 908:985 JLINK_ReadReg(FPS31)  returns 0x00000000 (0000ms, 1483ms total)
T4774 908:985 JLINK_ReadMemEx(0x2000D85C, 0x0004 Bytes, ..., Flags = 0x02000000) -- CPU_ReadMem(64 bytes @ 0x2000D840) -- Updating C cache (64 bytes @ 0x2000D840) -- Read from C cache (4 bytes @ 0x2000D85C) - Data: 5D 58 00 08  returns 0x04 (0002ms, 1485ms total)
T4774 908:987 JLINK_ReadMemEx(0x2000D858, 0x0004 Bytes, ..., Flags = 0x02000000) -- Read from C cache (4 bytes @ 0x2000D858) - Data: 20 1C 00 20  returns 0x04 (0000ms, 1485ms total)
T4774 908:987 JLINK_ReadMemEx(0x2000D86C, 0x0004 Bytes, ..., Flags = 0x02000000) -- Read from C cache (4 bytes @ 0x2000D86C) - Data: 0D 56 00 08  returns 0x04 (0000ms, 1485ms total)
T4774 908:987 JLINK_ReadMemEx(0x2000D860, 0x0004 Bytes, ..., Flags = 0x02000000) -- Read from C cache (4 bytes @ 0x2000D860) - Data: F0 63 00 08  returns 0x04 (0001ms, 1486ms total)
T4774 908:988 JLINK_ReadMemEx(0x2000D864, 0x0004 Bytes, ..., Flags = 0x02000000) -- Read from C cache (4 bytes @ 0x2000D864) - Data: F0 63 00 08  returns 0x04 (0000ms, 1486ms total)
